! MS46122B
! 1746301/73750021
! 11/1/2023 4:11:00 PM
! C:\USERS\SPEGWAL\DOWNLOADS\SAURABH\REACH\NODES\FRONT END\MEASUREMENTS\MEASURED S-PARAMETERS_01-11-2023\CABLES\10M_P1A1-P2A2.S2P
! CHANNEL.1
! TR.MEASUREMENT
! CORRECTED.DATA
# GHZ S RI R 50.0
! FREQ.GHZ         S11RE         S11IM         S21RE         S21IM         S12RE         S12IM         S22RE         S22IM         
!; PortSelection: Port_12
   0.001000000     0.0123767    0.0031170     0.9549748   -0.2566671     0.9566130   -0.2586569     0.0141110    0.0039367 
   0.001249500     0.0138544    0.0019311     0.9366079   -0.3174929     0.9363486   -0.3181076     0.0153346    0.0026627 
   0.001499000     0.0148372    0.0004895     0.9137709   -0.3757636     0.9132257   -0.3767212     0.0162979    0.0011462 
   0.001748500     0.0155631   -0.0011323     0.8873217   -0.4323629     0.8866717   -0.4334338     0.0170279   -0.0005039 
   0.001998000     0.0160429   -0.0029232     0.8574910   -0.4869705     0.8566439   -0.4880814     0.0174510   -0.0022850 
   0.002247500     0.0160973   -0.0050229     0.8238690   -0.5378451     0.8230189   -0.5391490     0.0175529   -0.0042847 
   0.002497000     0.0160736   -0.0070155     0.7876421   -0.5879157     0.7866074   -0.5891474     0.0174912   -0.0061689 
   0.002746500     0.0157427   -0.0089335     0.7485324   -0.6354207     0.7472980   -0.6367576     0.0171887   -0.0080807 
   0.002996000     0.0151766   -0.0108369     0.7063193   -0.6805975     0.7050462   -0.6818483     0.0166817   -0.0099406 
   0.003245500     0.0143268   -0.0126174     0.6616207   -0.7227737     0.6603846   -0.7239457     0.0158693   -0.0116778 
   0.003495000     0.0132413   -0.0142925     0.6145070   -0.7621734     0.6130058   -0.7631555     0.0149025   -0.0133255 
   0.003744500     0.0119444   -0.0158407     0.5650229   -0.7983976     0.5635375   -0.7993491     0.0136717   -0.0148743 
   0.003994000     0.0105128   -0.0171949     0.5135575   -0.8314666     0.5120042   -0.8323349     0.0123002   -0.0162291 
   0.004243500     0.0088163   -0.0183083     0.4601817   -0.8611529     0.4588086   -0.8603633     0.0107517   -0.0172862 
   0.004493000     0.0070858   -0.0192094     0.4051561   -0.8873835     0.4039164   -0.8865819     0.0091000   -0.0181016 
   0.004742500     0.0052375   -0.0198808     0.3486358   -0.9099258     0.3473424   -0.9094492     0.0073916   -0.0187809 
   0.004992000     0.0034003   -0.0202842     0.2908874   -0.9291959     0.2895138   -0.9286023     0.0056033   -0.0191545 
   0.005241500     0.0015325   -0.0204214     0.2320409   -0.9449233     0.2306600   -0.9442340     0.0038232   -0.0193491 
   0.005491000    -0.0003020   -0.0203290     0.1721778   -0.9568377     0.1708671   -0.9561730     0.0020189   -0.0193139 
   0.005740500    -0.0021309   -0.0200356     0.1119276   -0.9650952     0.1106784   -0.9644446     0.0002599   -0.0190633 
   0.005990000    -0.0038766   -0.0195725     0.0511901   -0.9696572     0.0499596   -0.9687728    -0.0013806   -0.0186569 
   0.006239500    -0.0054692   -0.0188995    -0.0095616   -0.9704270    -0.0106743   -0.9694156    -0.0029327   -0.0180769 
   0.006489000    -0.0069974   -0.0180771    -0.0702327   -0.9674544    -0.0712115   -0.9661719    -0.0043933   -0.0172937 
   0.006738500    -0.0083850   -0.0171070    -0.1304557   -0.9605842    -0.1315310   -0.9592254    -0.0057764   -0.0164438 
   0.006988000    -0.0095735   -0.0159862    -0.1899896   -0.9499106    -0.1908807   -0.9484892    -0.0069710   -0.0153868 
   0.007237500    -0.0106316   -0.0147771    -0.2488526   -0.9355764    -0.2497204   -0.9341544    -0.0080054   -0.0142428 
   0.007487000    -0.0114538   -0.0135084    -0.3066380   -0.9176534    -0.3071398   -0.9162335    -0.0088414   -0.0130185 
   0.007736500    -0.0121385   -0.0121205    -0.3632702   -0.8961840    -0.3637153   -0.8945445    -0.0094680   -0.0117110 
   0.007986000    -0.0125953   -0.0107309    -0.4184615   -0.8710605    -0.4187020   -0.8696190    -0.0099592   -0.0103630 
   0.008235500    -0.0128543   -0.0093161    -0.4719113   -0.8428245    -0.4718439   -0.8414223    -0.0102259   -0.0090528 
   0.008485000    -0.0129596   -0.0079265    -0.5233684   -0.8112710    -0.5232257   -0.8098169    -0.0103579   -0.0077026 
   0.008734500    -0.0128590   -0.0065806    -0.5727791   -0.7766601    -0.5724924   -0.7752550    -0.0102759   -0.0064136 
   0.008984000    -0.0126075   -0.0052978    -0.6198286   -0.7390236    -0.6195408   -0.7375392    -0.0100328   -0.0051703 
   0.009233500    -0.0122273   -0.0040913    -0.6644326   -0.6985617    -0.6639677   -0.6971473    -0.0096726   -0.0040057 
   0.009483000    -0.0116555   -0.0030015    -0.7062509   -0.6554864    -0.7057804   -0.6541253    -0.0091287   -0.0029140 
   0.009732500    -0.0109514   -0.0020145    -0.7454481   -0.6097360    -0.7449237   -0.6084058    -0.0084574   -0.0019580 
   0.009982000    -0.0101425   -0.0011804    -0.7815605   -0.5619094    -0.7809005   -0.5605661    -0.0077016   -0.0011458 
   0.010231500    -0.0092222   -0.0004582    -0.8147988   -0.5116048    -0.8139670   -0.5103295    -0.0068207   -0.0004485 
   0.010481000    -0.0082354    0.0000653    -0.8448300   -0.4594564    -0.8439292   -0.4583977    -0.0058655    0.0000512 
   0.010730500    -0.0071958    0.0004173    -0.8714820   -0.4057334    -0.8705155   -0.4047485    -0.0048904    0.0004482 
   0.010980000    -0.0061453    0.0006423    -0.8946807   -0.3504721    -0.8936267   -0.3494544    -0.0038471    0.0006735 
   0.011229500    -0.0050761    0.0006952    -0.9144189   -0.2939468    -0.9133245   -0.2930529    -0.0028129    0.0006871 
   0.011479000    -0.0040324    0.0005980    -0.9305800   -0.2361200    -0.9293208   -0.2352225    -0.0018184    0.0006192 
   0.011728500    -0.0030270    0.0003419    -0.9430541   -0.1777109    -0.9418814   -0.1768760    -0.0008141    0.0003526 
   0.011978000    -0.0020633   -0.0000676    -0.9518711   -0.1186027    -0.9505728   -0.1177884     0.0001141   -0.0000235 
   0.012227500    -0.0011931   -0.0005959    -0.9569135   -0.0588251    -0.9556695   -0.0581516     0.0009646   -0.0005303 
   0.012477000    -0.0004290   -0.0012571    -0.9583360    0.0009172    -0.9570367    0.0014097     0.0017112   -0.0011729 
   0.012726500     0.0002401   -0.0020305    -0.9559521    0.0607610    -0.9546163    0.0612201     0.0023760   -0.0018883 
   0.012976000     0.0007786   -0.0028923    -0.9500431    0.1201975    -0.9486257    0.1205702     0.0028876   -0.0027200 
   0.013225500     0.0011931   -0.0038360    -0.9402504    0.1790379    -0.9387767    0.1793877     0.0032930   -0.0036450 
   0.013475000     0.0014526   -0.0048291    -0.9269571    0.2370729    -0.9255343    0.2372956     0.0035590   -0.0045795 
   0.013724500     0.0015763   -0.0058641    -0.9101088    0.2942379    -0.9085994    0.2942575     0.0036365   -0.0055464 
   0.013974000     0.0015648   -0.0069004    -0.8895785    0.3503120    -0.8880785    0.3502831     0.0036402   -0.0065513 
   0.014223500     0.0013899   -0.0079345    -0.8657460    0.4047824    -0.8643780    0.4047487     0.0034919   -0.0075047 
   0.014473000     0.0010677   -0.0089334    -0.8385492    0.4578472    -0.8370464    0.4576884     0.0031624   -0.0084751 
   0.014722500     0.0005672   -0.0099087    -0.8079129    0.5089337    -0.8065147    0.5087782     0.0027297   -0.0094130 
   0.014972000    -0.0000156   -0.0108305    -0.7743035    0.5579572    -0.7729651    0.5577914     0.0021370   -0.0102567 
   0.015221500    -0.0007116   -0.0116923    -0.7376302    0.6049723    -0.7362234    0.6046674     0.0014119   -0.0110573 
   0.015471000    -0.0015497   -0.0124207    -0.6983140    0.6495879    -0.6968961    0.6492063     0.0006369   -0.0117613 
   0.015720500    -0.0024942   -0.0130892    -0.6561838    0.6915643    -0.6548529    0.6911137    -0.0002641   -0.0123786 
   0.015970000    -0.0034835   -0.0136271    -0.6117576    0.7308262    -0.6103484    0.7301943    -0.0012418   -0.0128645 
   0.016219500    -0.0045413   -0.0140409    -0.5648329    0.7671417    -0.5634977    0.7664224    -0.0022617   -0.0132350 
   0.016469000    -0.0056405   -0.0143347    -0.5155851    0.8006182    -0.5143601    0.7997577    -0.0033382   -0.0134955 
   0.016718500    -0.0067787   -0.0144663    -0.4647421    0.8308563    -0.4636714    0.8299573    -0.0044060   -0.0135998 
   0.016968000    -0.0079153   -0.0144737    -0.4118443    0.8578048    -0.4107792    0.8569190    -0.0054584   -0.0135993 
   0.017217500    -0.0090602   -0.0143625    -0.3574896    0.8813578    -0.3564473    0.8803912    -0.0065628   -0.0134161 
   0.017467000    -0.0101726   -0.0140886    -0.3017186    0.9015588    -0.3007689    0.9005748    -0.0075929   -0.0131208 
   0.017716500    -0.0112093   -0.0136892    -0.2447765    0.9182892    -0.2438274    0.9172176    -0.0085945   -0.0126989 
   0.017966000    -0.0122302   -0.0131551    -0.1871320    0.9313596    -0.1861706    0.9303291    -0.0095339   -0.0121172 
   0.018215500    -0.0131963   -0.0125224    -0.1286283    0.9409066    -0.1277164    0.9396832    -0.0103994   -0.0114607 
   0.018465000    -0.0139991   -0.0117383    -0.0699306    0.9467790    -0.0691597    0.9454744    -0.0111313   -0.0106605 
   0.018714500    -0.0147136   -0.0109087    -0.0106277    0.9488379    -0.0101434    0.9476110    -0.0117971   -0.0098002 
   0.018964000    -0.0153608   -0.0100033     0.0483301    0.9474040     0.0489240    0.9460585    -0.0123521   -0.0088649 
   0.019213500    -0.0158677   -0.0090140     0.1070926    0.9423131     0.1075265    0.9409105    -0.0127616   -0.0078508 
   0.019463000    -0.0162663   -0.0079743     0.1656014    0.9333827     0.1659693    0.9320469    -0.0130747   -0.0068013 
   0.019712500    -0.0165051   -0.0069309     0.2233132    0.9210251     0.2234460    0.9195335    -0.0132149   -0.0057442 
   0.019962000    -0.0166385   -0.0058461     0.2802430    0.9049920     0.2802336    0.9035791    -0.0132790   -0.0046629 
   0.020211500    -0.0166271   -0.0047808     0.3360997    0.8854792     0.3359112    0.8840851    -0.0131595   -0.0035652 
   0.020461000    -0.0164782   -0.0037446     0.3904431    0.8625799     0.3901416    0.8611621    -0.0128891   -0.0025505 
   0.020710500    -0.0161735   -0.0027588     0.4432937    0.8362208     0.4429332    0.8348724    -0.0125416   -0.0015241 
   0.020960000    -0.0157832   -0.0018084     0.4942568    0.8069187     0.4937615    0.8054477    -0.0120078   -0.0005997 
   0.021209500    -0.0152362   -0.0009413     0.5434355    0.7742290     0.5428857    0.7728012    -0.0113456    0.0002849 
   0.021459000    -0.0146328   -0.0001486     0.5904440    0.7387058     0.5896954    0.7372959    -0.0106297    0.0010539 
   0.021708500    -0.0139038    0.0005411     0.6348667    0.7005074     0.6342266    0.6990882    -0.0097543    0.0017326 
   0.021958000    -0.0131130    0.0011482     0.6771368    0.6593311     0.6763799    0.6580484    -0.0088386    0.0022905 
   0.022207500    -0.0122784    0.0016253     0.7164796    0.6158229     0.7157602    0.6144738    -0.0078280    0.0027253 
   0.022457000    -0.0113645    0.0020090     0.7532516    0.5696489     0.7525743    0.5683237    -0.0068014    0.0030407 
   0.022706500    -0.0104501    0.0022374     0.7871103    0.5214492     0.7863201    0.5202563    -0.0057380    0.0032015 
   0.022956000    -0.0095194    0.0023346     0.8178098    0.4713263     0.8169583    0.4701888    -0.0046908    0.0032432 
   0.023205500    -0.0085851    0.0022919     0.8452198    0.4194221     0.8443556    0.4181401    -0.0036032    0.0030953 
   0.023455000    -0.0076790    0.0021148     0.8693798    0.3659933     0.8684184    0.3648465    -0.0025566    0.0028375 
   0.023704500    -0.0068257    0.0018383     0.8902617    0.3110403     0.8893226    0.3100576    -0.0015560    0.0024593 
   0.023954000    -0.0059951    0.0014320     0.9075137    0.2551624     0.9064682    0.2541417    -0.0005975    0.0019176 
   0.024203500    -0.0052581    0.0009230     0.9214041    0.1981257     0.9201580    0.1973151     0.0002724    0.0012749 
   0.024453000    -0.0045910    0.0003141     0.9316136    0.1402936     0.9304424    0.1395839     0.0010558    0.0005332 
   0.024702500    -0.0040759   -0.0003852     0.9382570    0.0822507     0.9370679    0.0815991     0.0017326   -0.0003377 
   0.024952000    -0.0036030   -0.0011655     0.9412077    0.0234027     0.9399626    0.0229726     0.0023449   -0.0012968 
   0.025201500    -0.0032502   -0.0019754     0.9410314   -0.0349147     0.9397021   -0.0355447     0.0027524   -0.0022578 
   0.025451000    -0.0030396   -0.0029175     0.9362999   -0.0937058     0.9349904   -0.0939761     0.0030866   -0.0034140 
   0.025700500    -0.0029138   -0.0038207     0.9284720   -0.1517110     0.9270210   -0.1519636     0.0033025   -0.0045477 
   0.025950000    -0.0029338   -0.0047278     0.9170372   -0.2091154     0.9155960   -0.2092205     0.0033284   -0.0057250 
   0.026199500    -0.0030645   -0.0056559     0.9018220   -0.2657458     0.9005358   -0.2659024     0.0032583   -0.0068879 
   0.026449000    -0.0033234   -0.0065508     0.8833331   -0.3210005     0.8819293   -0.3211685     0.0030281   -0.0080331 
   0.026698500    -0.0037190   -0.0073987     0.8613990   -0.3754249     0.8600504   -0.3751304     0.0026500   -0.0091430 
   0.026948000    -0.0042161   -0.0082179     0.8360332   -0.4279685     0.8346906   -0.4278878     0.0021615   -0.0102225 
   0.027197500    -0.0048159   -0.0089393     0.8074647   -0.4790805     0.8061892   -0.4787518     0.0015287   -0.0112563 
   0.027447000    -0.0055135   -0.0096241     0.7758252   -0.5283903     0.7745309   -0.5279459     0.0007917   -0.0121982 
   0.027696500    -0.0062944   -0.0101989     0.7412643   -0.5754696     0.7400762   -0.5750157    -0.0000341   -0.0130350 
   0.027946000    -0.0071769   -0.0106673     0.7037285   -0.6203550     0.7025230   -0.6197618    -0.0009994   -0.0138050 
   0.028195500    -0.0081078   -0.0109596     0.6636077   -0.6626794     0.6624867   -0.6619841    -0.0020014   -0.0144203 
   0.028445000    -0.0090812   -0.0111963     0.6210010   -0.7026214     0.6199585   -0.7016937    -0.0031215   -0.0149069 
   0.028694500    -0.0101005   -0.0112949     0.5758377   -0.7396478     0.5746677   -0.7387688    -0.0042532   -0.0152977 
   0.028944000    -0.0111438   -0.0112803     0.5286369   -0.7735177     0.5275722   -0.7727299    -0.0054948   -0.0155236 
   0.029193500    -0.0121468   -0.0111096     0.4793338   -0.8047394     0.4782251   -0.8039539    -0.0066823   -0.0156344 
   0.029443000    -0.0131651   -0.0108157     0.4283637   -0.8326899     0.4271999   -0.8317692    -0.0078772   -0.0155845 
   0.029692500    -0.0141271   -0.0103943     0.3754674   -0.8573782     0.3745854   -0.8564621    -0.0091079   -0.0154253 
   0.029942000    -0.0150355   -0.0098621     0.3211234   -0.8788878     0.3203341   -0.8778362    -0.0102935   -0.0150997 
   0.030191500    -0.0158962   -0.0091970     0.2658383   -0.8970464     0.2650302   -0.8959493    -0.0113929   -0.0146603 
   0.030441000    -0.0166529   -0.0084307     0.2094256   -0.9115320     0.2086135   -0.9104264    -0.0124901   -0.0140783 
   0.030690500    -0.0172663   -0.0075358     0.1524852   -0.9225581     0.1516582   -0.9213777    -0.0134746   -0.0133865 
   0.030940000    -0.0178474   -0.0066130     0.0946342   -0.9300049     0.0940799   -0.9287159    -0.0143358   -0.0125682 
   0.031189500    -0.0183037   -0.0056009     0.0366654   -0.9337656     0.0360148   -0.9325996    -0.0151536   -0.0116769 
   0.031439000    -0.0185813   -0.0045109    -0.0212895   -0.9339726    -0.0219581   -0.9327572    -0.0157890   -0.0106864 
   0.031688500    -0.0187545   -0.0033870    -0.0793406   -0.9306394    -0.0798905   -0.9293130    -0.0163494   -0.0096605 
   0.031938000    -0.0187852   -0.0022544    -0.1369462   -0.9236315    -0.1374818   -0.9223078    -0.0167734   -0.0085725 
   0.032187500    -0.0187040   -0.0011405    -0.1942212   -0.9130011    -0.1944187   -0.9116039    -0.0170258   -0.0074597 
   0.032437000    -0.0184499   -0.0000076    -0.2505479   -0.8990576    -0.2507479   -0.8975237    -0.0171680   -0.0062863 
   0.032686500    -0.0182016    0.0010487    -0.3058963   -0.8814418    -0.3052393   -0.8800819    -0.0173226   -0.0052464 
   0.032936000    -0.0175967    0.0021441    -0.3600904   -0.8605325    -0.3599922   -0.8590825    -0.0170812   -0.0040467 
   0.033185500    -0.0170788    0.0030900    -0.4127111   -0.8361570    -0.4119018   -0.8348675    -0.0169419   -0.0029779 
   0.033435000    -0.0162111    0.0040339    -0.4638946   -0.8086738    -0.4634821   -0.8073312    -0.0164271   -0.0018945 
   0.033684500    -0.0153731    0.0048228    -0.5130877   -0.7781933    -0.5127203   -0.7766414    -0.0159690   -0.0009349 
   0.033934000    -0.0144370    0.0055443    -0.5602393   -0.7446892    -0.5598212   -0.7433289    -0.0153942   -0.0000578 
   0.034183500    -0.0133893    0.0061244    -0.6053349   -0.7080743    -0.6048056   -0.7068214    -0.0147386    0.0007415 
   0.034433000    -0.0123101    0.0065705    -0.6479203   -0.6688971    -0.6472955   -0.6676141    -0.0139564    0.0014543 
   0.034682500    -0.0111404    0.0069037    -0.6880993   -0.6271201    -0.6873829   -0.6258819    -0.0131011    0.0020577 
   0.034932000    -0.0099823    0.0070739    -0.7255889   -0.5831051    -0.7248782   -0.5818583    -0.0122314    0.0025171 
   0.035181500    -0.0087938    0.0070956    -0.7603127   -0.5366378    -0.7594067   -0.5354967    -0.0113035    0.0028571 
   0.035431000    -0.0075866    0.0069788    -0.7919027   -0.4883151    -0.7910443   -0.4871137    -0.0103045    0.0030687 
   0.035680500    -0.0064171    0.0067482    -0.8205616   -0.4380950    -0.8194504   -0.4371594    -0.0093253    0.0031637 
   0.035930000    -0.0052411    0.0063443    -0.8459699   -0.3860746    -0.8449108   -0.3851387    -0.0083569    0.0031588 
   0.036179500    -0.0041350    0.0058007    -0.8682066   -0.3327534    -0.8670285   -0.3317310    -0.0074159    0.0029969 
   0.036429000    -0.0030940    0.0051623    -0.8869492   -0.2780235    -0.8857988   -0.2773693    -0.0064765    0.0027391 
   0.036678500    -0.0021345    0.0043755    -0.9022563   -0.2222926    -0.9010640   -0.2215483    -0.0056025    0.0023721 
   0.036928000    -0.0012873    0.0035086    -0.9140128   -0.1657326    -0.9128922   -0.1650916    -0.0048016    0.0018686 
   0.037177500    -0.0005212    0.0025147    -0.9223746   -0.1084654    -0.9210089   -0.1079016    -0.0040813    0.0012738 
   0.037427000     0.0001313    0.0014562    -0.9271344   -0.0509404    -0.9257408   -0.0504177    -0.0034572    0.0006273 
   0.037676500     0.0006571    0.0003041    -0.9282718    0.0069531    -0.9268815    0.0073425    -0.0029252   -0.0001218 
   0.037926000     0.0010424   -0.0008768    -0.9258589    0.0644362    -0.9243025    0.0649252    -0.0024870   -0.0009180 
   0.038175500     0.0012664   -0.0020877    -0.9197974    0.1218095    -0.9183674    0.1220459    -0.0021928   -0.0017341 
   0.038425000     0.0013690   -0.0033384    -0.9100782    0.1787697    -0.9087481    0.1790161    -0.0019749   -0.0025946 
   0.038674500     0.0013145   -0.0045711    -0.8971179    0.2348476    -0.8956521    0.2349847    -0.0019121   -0.0034481 
   0.038924000     0.0011384   -0.0058038    -0.8804540    0.2901827    -0.8792450    0.2900522    -0.0019500   -0.0043420 
   0.039173500     0.0007894   -0.0069966    -0.8604559    0.3442677    -0.8591782    0.3442286    -0.0021071   -0.0051654 
   0.039423000     0.0003076   -0.0081477    -0.8370852    0.3969767    -0.8359413    0.3967793    -0.0023922   -0.0059988 
   0.039672500    -0.0002596   -0.0092278    -0.8104639    0.4482821    -0.8094319    0.4472707    -0.0027662   -0.0068515 
   0.039922000    -0.0010240   -0.0101710    -0.7815504    0.4977480    -0.7800488    0.4974682    -0.0032844   -0.0074444 
   0.040171500    -0.0018298   -0.0110549    -0.7489125    0.5452253    -0.7476091    0.5447355    -0.0038845   -0.0081083 
